# HZ S RI R 50
500000000 -0.3770320677636787 0.8469809222004638
500212194 -0.37405918493648105 0.8477473666976338
500424388 -0.37125478608662527 0.8493332260261344
500636582 -0.3674492790922664 0.8511601344615165
500848776 -0.36465455070156083 0.8530483482173676
501060970 -0.36110616916677046 0.8547010427269534
501273164 -0.35804876260908075 0.856512802501472
501485358 -0.3545405580855932 0.85869119356342
501697552 -0.3521427135804174 0.8613053745480591
501909746 -0.3486316358789208 0.8620712304448421
502121940 -0.34515365345430526 0.8639611272027076
502334134 -0.34149757237783607 0.8657124779035982
502546328 -0.3388255807987993 0.8670018617042229
502758522 -0.3357476918580464 0.8688245655632623
502970716 -0.33238847997503673 0.8708428938842908
503182910 -0.3286353352200991 0.8714380943086888
503395104 -0.3261118024002048 0.8737533683599521
503607298 -0.32204280193750007 0.8752525636664115
503819492 -0.318773954689945 0.8765931074477897
504031686 -0.31465927731083093 0.8777762334101872
504243880 -0.31130456918209576 0.8797486464093509
504456074 -0.30665589438514146 0.8807838739965103
504668268 -0.303403261351438 0.8816939572032045
504880462 -0.2986857177566808 0.8828776108274515
505092656 -0.2952449424825956 0.8844646161003425
505304850 -0.291369253011168 0.8852228586077773
505517044 -0.2873758188533804 0.8870734713266393
505729238 -0.28337048882650645 0.8876371112257572
505941432 -0.2788158645211448 0.887794673300825
506153626 -0.2752728255564911 0.8886961345247413
506365820 -0.27137629018151954 0.8893456759350631
506578014 -0.26612812512544454 0.8895346713158763
506790208 -0.2617827684273102 0.8901220079004577
507002402 -0.25693325946923096 0.8890257276121539
507214596 -0.2514906270229266 0.889818711681625
507426790 -0.24743805710854416 0.8889407870754041
507638984 -0.24197282034972212 0.889104593847128
507851178 -0.23691243119305525 0.8882924146292076
508063372 -0.2321199900079598 0.8884390352684023
508275566 -0.22782149594691664 0.8886356147586881
508487760 -0.22430267260443335 0.8890319099636751
508699954 -0.21927858127230326 0.8902432268999895
508912148 -0.21502315310203035 0.8900954185816842
509124342 -0.2106857746740016 0.8918457009020233
509336536 -0.20718927212575763 0.8920101194699103
509548730 -0.2034345321819349 0.8932845808268963
509760924 -0.19985516808372555 0.8945728395290178
509973118 -0.19573777656362332 0.8954159625273972
510185312 -0.19231093242396285 0.8960872595621688
510397506 -0.187899822038823 0.8969717598083211
510609700 -0.18396152750928324 0.8989345587290101
510821894 -0.17985179136990806 0.8993016149548463
511034088 -0.17591492483285526 0.9003665632118864
511246282 -0.17225110761220444 0.9016794158049498
511458476 -0.1667493176372718 0.9021239011754791
511670670 -0.16251050804390746 0.9024366680066239
511882864 -0.15829324569538278 0.9021807254207703
512095058 -0.15281127636847364 0.9019166321787377
512307252 -0.14828923503050867 0.902351492327798
512519446 -0.14340175597769114 0.9013091322091039
512731640 -0.13892224841175585 0.9013638043610132
512943834 -0.13388815312171115 0.9006235311340894
513156028 -0.1293310341715105 0.9012049539108609
513368222 -0.12477336464118927 0.9008606504238023
513580416 -0.11981477569803918 0.900253392021301
513792610 -0.1147811923885508 0.9000142902133641
514004804 -0.11037356937254034 0.8995384443722214
514216998 -0.10491879837713011 0.8995146691592006
514429192 -0.09984307355232486 0.8993105350297671
514641386 -0.09625735986083296 0.8987155179542965
514853580 -0.09093388974384913 0.8979769666409849
515065774 -0.08611779524319824 0.8975779209270998
515277968 -0.08118053698168026 0.897094956377583
515490162 -0.07607511995143827 0.8967694568508592
515702356 -0.07123739210016211 0.896579711586189
515914550 -0.06724987101657394 0.8959414320377198
516126744 -0.06247908380190255 0.8947840511061275
516338938 -0.05761321232745726 0.894876937027222
516551132 -0.05322339796421431 0.8943837910088646
516763326 -0.04897289144434074 0.8941785936828235
516975520 -0.04455120906810568 0.893814424476874
517187714 -0.04012765273502084 0.8932203135310749
517399908 -0.035588742730798456 0.8927973777711878
517612102 -0.03092375230531434 0.8926951777812098
517824296 -0.026427572620048433 0.8921324124785748
518036490 -0.021573547498271377 0.8913065120705733
518248684 -0.016568987273746318 0.8906731484630934
518460878 -0.011516814792325055 0.8900492556354845
518673072 -0.006349207862705201 0.8891525990773603
518885266 -0.0003316392796455639 0.88809591881474
519097460 0.005007699958927559 0.8869063671130343
519309654 0.010543508239192482 0.886468679585525
519521848 0.015517795999336342 0.8857585473543076
519734042 0.020770130610976868 0.8847530259430137
519946236 0.025626199672041626 0.8840647182397089
520158430 0.030828180570979257 0.883947960642657
520370624 0.0352924798105988 0.8829602890386161
520582818 0.04057854849453571 0.8825051807256817
520795012 0.04490717730626387 0.8815956503890429
521007206 0.04909116824353374 0.8811855073383627
521219400 0.053436196707337354 0.8807178734796777
521431594 0.11731612167892848 0.8635107381143349
521643788 0.11998575958047766 0.8621244658373144
521855982 0.12431184770229095 0.8606307757855135
522068176 0.12745177235538432 0.8598512812514914
522280370 0.1314899032225947 0.8583514619203431
522492564 0.13467575502032914 0.8567453813244198
522704758 0.13867000929880585 0.855302075657958
522916952 0.14173499022295621 0.8545403619417831
523129146 0.14510182195044108 0.8532771735334592
523341340 0.1484467880257101 0.8519259663931475
523553534 0.15213193023376764 0.8501074106506058
523765728 0.1557125901090701 0.8496165089629099
523977922 0.15907967561197955 0.8478115174753328
524190116 0.16255837554220925 0.8467502944371145
524402310 0.1663051619135927 0.8449979827753472
524614504 0.16961141153030315 0.8439547673538677
524826698 0.17295868939504608 0.8427657280176687
525038892 0.17594613915717228 0.8418182686495069
525251086 0.17959711632079492 0.8406887314158877
525463280 0.18347993321311962 0.8387121887090736
525675474 0.18673702303987574 0.8376573990780196
525887668 0.1902834199611891 0.8363229611405959
526099862 0.19356841108684064 0.8340442731426505
526312056 0.19713345129813595 0.8328760990623548
526524250 0.20030442202051704 0.8319090813932851
526736444 0.20417497505400373 0.8296867349512108
526948638 0.20737121255048768 0.8278768033081271
527160832 0.21018990482966654 0.8271103537509746
527373026 0.21395248364420646 0.8252819870170539
527585220 0.216877214673713 0.8237845367343728
527797414 0.2206833752178297 0.8215166187530403
528009608 0.2237986129360057 0.8201659987693213
528221802 0.2267491395422811 0.8179472034615185
528433996 0.22997045830575125 0.8172327079653621
528646190 0.23277055184882375 0.8156404195686667
528858384 0.23611822009796743 0.8132034513277282
529070578 0.23883039452392435 0.8113677084131037
529282772 0.24220632165763453 0.8094337109003122
529494966 0.245767790459596 0.808034875265993
529707160 0.24733140778730534 0.8069705433665918
529919354 0.2510148414439079 0.8048532544828886
530131548 0.25377424789064257 0.8034755351850179
530343742 0.2565724906690408 0.801856090159875
530555936 0.25942017663250266 0.8005569639682178
530768130 0.2621224281246919 0.798611765914291
530980324 0.2651071446132385 0.7969199586498089
531192518 0.267703845079111 0.796126157448147
531404712 0.2707871214390508 0.7946641710051704
531616906 0.2734748968840099 0.7933806799872496
531829100 0.2760705283346116 0.7920156045846025
532041294 0.27947711341095316 0.7900903125201086
532253488 0.28260245399891215 0.788521290007794
532465682 0.28525474246661553 0.7873208756571213
532677876 0.28758298580821773 0.785860386021065
532890070 0.2911836444281678 0.7837010529985589
533102264 0.29404155182495656 0.7829688325045352
533314458 0.2972875732540649 0.7811910617056567
533526652 0.30047086920436555 0.7793606292056908
533738846 0.3029282068538871 0.7783791875693404
533951040 0.3061860132871009 0.7766744489414895
534163234 0.3091817308884845 0.7746169430810312
534375428 0.3117816528257774 0.7733457605016129
534587622 0.31484838617074473 0.7718619067543078
534799816 0.3177852138412599 0.7693359557348739
535012010 0.32119698115061174 0.7680021755151972
535224204 0.32351344181062164 0.7657691663494646
535436398 0.3268544558792649 0.7642820131327545
535648592 0.3294263221180421 0.7624158855398917
535860786 0.3320302221094992 0.7610017895799783
536072980 0.3348560072859782 0.7589685613662387
536285174 0.33748731441798646 0.7570500552826053
536497368 0.34007924095352526 0.7553290905303879
536709562 0.3425763252605534 0.7540656857751923
536921756 0.3446745223059398 0.7519283747794849
537133950 0.34846420299324093 0.7502103103238412
537346144 0.3504054588597598 0.7481970816887104
537558338 0.352853510751768 0.7468700563180635
537770532 0.35549760298966776 0.7450034189680541
537982726 0.3579851092128134 0.7430526148926729
538194920 0.3603706884528361 0.7415013302626664
538407114 0.3633519667549142 0.7398840735191665
538619308 0.36550852373120185 0.7384060756271452
538831502 0.36788588088965335 0.7371050244265123
539043696 0.3707214564500484 0.7349489188071628
539255890 0.3727339220620465 0.7337971104648752
539468084 0.3762960895900411 0.7321246327523552
539680278 0.3783648607095435 0.7308409970296441
539892472 0.38093502787879635 0.7296764236896454
540104666 0.3836334591731097 0.7272843151306213
540316860 0.3864231651084341 0.7260282455644629
540529054 0.38882035527523795 0.7249575781348679
540741248 0.39128820337899706 0.7232811193308762
540953442 0.3945010359154682 0.7217592920941245
541165636 0.3967785951184661 0.7202410842994879
541377830 0.4000656141350516 0.7183944059702059
541590024 0.40234132148470036 0.716718962820211
541802218 0.4052066969944606 0.7147805552721125
542014412 0.40790611185967324 0.7134030942357305
542226606 0.41046861399279644 0.7111735567415741
542438800 0.41333572112273387 0.7100923706820161
542650994 0.41597242472232704 0.7079971227007312
542863188 0.41898634375494587 0.704981981138388
543075382 0.4218545220921552 0.7027282089832934
543287576 0.42455246112975825 0.7011489863757039
543499770 0.42676403721687395 0.6998534917045836
543711964 0.42972337783336545 0.6980451997670062
543924158 0.431863343859338 0.6959361193326964
544136352 0.4343919407655339 0.6945004646078081
544348546 0.43650234130880705 0.692596489387497
544560740 0.4393541243856479 0.6908096201799199
544772934 0.44172523817440634 0.6892435604725187
544985128 0.4443697078779204 0.6875940423090344
545197322 0.446922907733139 0.6853708451211838
545409516 0.44945796466528853 0.6840146647671698
545621710 0.4514755102603774 0.682579475715126
545833904 0.4542053309473436 0.6808996494734743
546046098 0.45636701343043823 0.6790174671215631
546258292 0.45894252294447424 0.6773984433245299
546470486 0.46119401464411347 0.6756239747907524
546682680 0.46368202821676374 0.6738236227165953
546894874 0.46629575355960734 0.6723278276820819
547107068 0.4687648852921561 0.67081695013976
547319262 0.47144752876579943 0.6692928375745244
547531456 0.4736074944236738 0.6670593128589227
547743650 0.47677306759046717 0.6652442110471813
547955844 0.47810716649745194 0.6640295065504941
548168038 0.48145835575710944 0.6624086832358849
548380232 0.48375502362929096 0.6607214873809615
548592426 0.4869099532671073 0.6591671875005308
548804620 0.48882479791512207 0.6574570894532399
549016814 0.4913900611507629 0.6553104268875755
549229008 0.4943468905707148 0.6538375556063515
549441202 0.49754770175337637 0.6516632842320855
549653396 0.49989255912318686 0.6506016545186439
549865590 0.5027562659158403 0.6483313862736625
550077784 0.5052086896976689 0.6461722844990394
550289978 0.5080912322817777 0.6445783466144294
550502172 0.510515657373991 0.642565217502943
550714366 0.5133152860270676 0.6408885665063023
550926560 0.5156720142641046 0.6387142567510821
551138754 0.5187518926561466 0.6364732742209933
551350948 0.521068277812718 0.634480264076433
551563142 0.5233187776215981 0.6324069754812549
551775336 0.5257141549636279 0.6300275097375803
551987530 0.5278336110575101 0.6285014324108351
552199724 0.5313869840064388 0.6257847350638409
552411918 0.5330553406920884 0.6247101698675616
552624112 0.5358179225605901 0.6224871741448919
552836306 0.5383116959499255 0.620165940672103
553048500 0.5405593350804718 0.6181908375285944
553260694 0.5428668060225496 0.6159194030444305
553472888 0.5454380541358967 0.614183640162725
553685082 0.547726161187194 0.6122960662610403
553897276 0.5501890668215824 0.609549956571572
554109470 0.5525521629088109 0.6076360859946094
554321664 0.5548777838015122 0.6059050071860179
554533858 0.5573321059242681 0.6036162528892257
554746052 0.5597741858187167 0.601961760165963
554958246 0.5620745003546078 0.5994994821090766
555170440 0.5642158993918427 0.5978554088533463
555382634 0.5660415889426955 0.5957796563637572
555594828 0.5685443426351855 0.5936126288371476
555807022 0.5709559166186677 0.5918160644236135
556019216 0.573513202619036 0.5895252800826073
556231410 0.5758581628480531 0.5876865016627235
556443604 0.5783157785616625 0.585474468794233
556655798 0.5811788696496482 0.5834848050967917
556867992 0.5832296407009042 0.5818132122633084
557080186 0.5855421336053351 0.5796016443981772
557292380 0.5884560033296343 0.5779065909837087
557504574 0.5908044140228665 0.5758962817154539
557716768 0.593272736554444 0.5735309208977613
557928962 0.5957266205251962 0.5719364762322936
558141156 0.598371783478271 0.569872113278214
558353350 0.600792998350937 0.5671478071621627
558565544 0.6032925221009383 0.5645006788343409
558777738 0.6058653337256797 0.56254829231291
558989932 0.6085265996425766 0.5604255973051344
559202126 0.6101400615607495 0.5578918225716871
559414320 0.6125775879384552 0.5554484135600231
559626514 0.6159689548788844 0.553111360910234
559838708 0.6173215894720917 0.5511186389484073
560050902 0.6201868573734727 0.5488492744111481
560263096 0.6219608927216471 0.5459354472646586
560475290 0.6245453347452552 0.5440045349639104
560687484 0.6268445051666002 0.5413314324269961
560899678 0.6290754082477312 0.5394567043574828
561111872 0.6315385115221621 0.5371590276585582
561324066 0.6334394118942085 0.5352805079633025
561536260 0.6357329785248843 0.5321621667597427
561748454 0.637999850851287 0.5303044042294573
561960648 0.640441163622883 0.5274356478752732
562172842 0.6422428110885544 0.5249320476634284
562385036 0.6446530903569103 0.5236006181895325
562597230 0.6469287263179844 0.5207452271149685
562809424 0.649336726368902 0.5187472401260703
563021618 0.6513877718441291 0.5165213577256784
563233812 0.6536597959441732 0.5141551443409481
563446006 0.6565098101159333 0.5116330408371028
563658200 0.6587611112707218 0.5097168047357565
563870394 0.6613254708834381 0.5076949853203162
564082588 0.6637955036418023 0.5053766392627647
564294782 0.6668763398515208 0.5026278782791215
564506976 0.6690726291879227 0.5002372313253133
564719170 0.6711277619025963 0.4974992392127164
564931364 0.6737821108607017 0.49529298974631675
565143558 0.6754255109122465 0.4924915998565704
565355752 0.6780411815674114 0.4898337659320507
565567946 0.6808818182624377 0.48685816443982854
565780140 0.6828251179941249 0.4853170174029569
565992334 0.6850815388746078 0.48259878873055556
566204528 0.6874190910023815 0.4786542401242789
566416722 0.6893326669427812 0.47668424083128813
566628916 0.6917376846807032 0.4739084285284807
566841110 0.6939948837382189 0.47214650831768784
567053304 0.696579500780952 0.4686680941565965
567265498 0.6988231589042475 0.46648925314286055
567477692 0.7006167868031807 0.4636265355336233
567689886 0.7026533710889523 0.46044204027217805
567902080 0.7051457857321649 0.4580873328571212
568114274 0.7070576982463318 0.4554576024293537
568326468 0.7095148581954737 0.45296158591767105
568538662 0.7113537171088701 0.44944218339517317
568750856 0.713333051565853 0.4469076869305176
568963050 0.7157598059280417 0.4448182471875767
569175244 0.7178663470230906 0.44203593418660425
569387438 0.7200704011605644 0.4391234691298634
569599632 0.7224571014158258 0.4365033858711584
569811826 0.7240139963801192 0.433227322347109
570024020 0.7260605562366419 0.43131298466871454
570236214 0.7283452994672155 0.42820858670694983
570448408 0.7303102876709625 0.42460301895007246
570660602 0.7324253664994975 0.4230036271027977
570872796 0.7344114221265688 0.4197089752204335
571084990 0.7365461138964198 0.4166758118361339
571297184 0.738451413884824 0.4135562993198181
571509378 0.7407824476168547 0.4109295823436396
571721572 0.7423511278383046 0.4076299176592292
571933766 0.7444080976212947 0.4052101672223902
572145960 0.7466777835734542 0.4018605935681932
572358154 0.7484238341078887 0.39893243089590524
572570348 0.7508257551145229 0.3963711833243597
572782542 0.7528560224604927 0.3933352283007474
572994736 0.7547784282518912 0.38971932717656416
573206930 0.7571427195862369 0.3872766042073649
573419124 0.7587462566459926 0.38388901747064114
573631318 0.7608713710747554 0.38124408349143646
573843512 0.7625600318559158 0.37814796009864554
574055706 0.7647285874872891 0.3748356044399381
574267900 0.7669644130651398 0.37189666053564036
574480094 0.7686036672207449 0.3691218041477527
574692288 0.7709998914785565 0.36578941331396736
574904482 0.7721036449455445 0.3622194338015563
575116676 0.7743331274151485 0.3590277873102958
575328870 0.7764553110811877 0.3564328050030441
575541064 0.7778468037618993 0.3527095685393912
575753258 0.7799532947449533 0.34984212648054225
575965452 0.781503548341247 0.34661887845405154
576177646 0.7832843640307914 0.3437349043572845
576389840 0.7849024050790283 0.3404443153842177
576602034 0.78676003167376 0.33749119069413686
576814228 0.7887924295617385 0.33353325845423204
577026422 0.7896609747859159 0.3310831656918617
577238616 0.7920015534139587 0.32740532433609243
577450810 0.793737095752633 0.3235490544963381
577663004 0.7953654356093249 0.32047556377439945
577875198 0.7967135802946258 0.3180416066100648
578087392 0.7983583107704436 0.31474093736883807
578299586 0.8002250976187949 0.31110398466369144
578511780 0.8018834730849936 0.30759550938951363
578723974 0.8032626532039905 0.30440163392723907
578936168 0.804745488882718 0.30094203522030594
579148362 0.8067836004110184 0.2976259838712936
579360556 0.808448643121748 0.29438313583992815
579572750 0.8096321024280664 0.2913320290090206
579784944 0.8115421181300206 0.287552783271514
579997138 0.8126078109231385 0.2843846700154519
580209332 0.8140660935280075 0.2814208793279093
580421526 0.8154791943672665 0.2781245924370062
580633720 0.8167536910224624 0.27466572604001194
580845914 0.8184004601738885 0.27133224958440244
581058108 0.8197111584950497 0.26805196069766557
581270302 0.821098371808448 0.26487614433273343
581482496 0.8226257488197644 0.26113957924468945
581694690 0.8240374102113486 0.25789013162550367
581906884 0.8254602391778874 0.25431351341462693
582119078 0.8269930365809165 0.25156789805406166
582331272 0.8278902847419791 0.24739507241769404
582543466 0.8291621500274861 0.24476949015062693
582755660 0.8307181621130334 0.24120707864927504
582967854 0.8321698714579829 0.23804127047342594
583180048 0.8337859036438431 0.23467668917457168
583392242 0.8349232630447001 0.23070889882750245
583604436 0.8360080858251937 0.2283436915990807
583816630 0.8377989873706945 0.22386879227487527
584028824 0.8387273822597777 0.22089276943608166
584241018 0.840153693193969 0.2171660455455745
584453212 0.8416876281775328 0.21369256462983294
584665406 0.8427308541367181 0.2092386425115238
584877600 0.8436716178138632 0.20740140176122254
585089794 0.8448224640037629 0.2029091044108509
585301988 0.8460818307268742 0.19984368657802778
585514182 0.8474103223496445 0.19584351374155443
585726376 0.8486841083827057 0.19271261225711736
585938570 0.8498638191023745 0.1893700861822385
586150764 0.850633111914594 0.1858877443793127
586362958 0.8524032804655378 0.1822877961201319
586575152 0.8525750322223288 0.17823552894600503
586787346 0.8544832623144026 0.17504079356157382
586999540 0.855407752735066 0.17138402717402115
