# HZ S RI R 50
1000000000 0.7280080536051192 0.4482794651037373
1000231099 0.7295810188521964 0.4459596598750292
1000462198 0.7317697555051397 0.4426286071800982
1000693297 0.7348000641674703 0.4398035200369194
1000924396 0.7370967901029822 0.4371845916442748
1001155495 0.7391249650011215 0.43328348497560576
1001386594 0.7410619761691194 0.4318948218969696
1001617693 0.7436911099448014 0.427652944414525
1001848792 0.7456941361249586 0.42416119595289153
1002079891 0.7476091247805545 0.4211555590352
1002310990 0.7515749184785476 0.41703024903906405
1002542089 0.7521355862962348 0.4156772433520233
1002773188 0.7550500560490823 0.4110359055415355
1003004287 0.7578263082027816 0.408836572893357
1003235386 0.7596841973838622 0.4052563305980906
1003466485 0.7618610085749097 0.40163707956365036
1003697584 0.763947670498445 0.39795393323655415
1003928683 0.7660423946979412 0.39616304081447395
1004159782 0.7687499756853228 0.3924882485712929
1004390881 0.7712863833290768 0.38834744215842004
1004621980 0.7725529527280446 0.38603969059077686
1004853079 0.7754133100255436 0.3815551437038579
1005084178 0.7769203561741566 0.37858967948270383
1005315277 0.7793365082812183 0.37545695896285153
1005546376 0.7814079880598794 0.37312852365640214
1005777475 0.7832496615202172 0.36909999954575606
1006008574 0.7857439161956936 0.3659832944274928
1006239673 0.7873100500559521 0.3620888997144583
1006470772 0.7899016585295954 0.3584695038055557
1006701871 0.7917837078326276 0.3546859357117755
1006932970 0.7936998568398663 0.3518930568341667
1007164069 0.7957756440770443 0.3482094739881532
1007395168 0.797598893477846 0.3455692731714008
1007626267 0.7994965457897869 0.34201278481586095
1007857366 0.8011063648609872 0.3383878696152772
1008088465 0.8034890429125477 0.3351496466251499
1008319564 0.8054422610447386 0.33162175867849386
1008550663 0.8075299797863754 0.32884262667470465
1008781762 0.8089971238513366 0.32474614894709325
1009012861 0.8107370842379557 0.3219740080675092
1009243960 0.8129889260661396 0.31837705052602217
1009475059 0.8148933548932777 0.3141959905557148
1009706158 0.8167916471120896 0.31053624676393343
1009937257 0.8185892348023934 0.30728658908273565
1010168356 0.8205825119249515 0.30417638711998074
1010399455 0.8221849157856653 0.3003836734571642
1010630554 0.8241371474243087 0.29699229130228466
1010861653 0.8259506368535816 0.29323391941615756
1011092752 0.8277833795824281 0.2906012740742593
1011323851 0.8295142317798956 0.28636396425308935
1011554950 0.8313336979053417 0.2833662349588944
1011786049 0.8332122231353695 0.27885225612138664
1012017148 0.8346387103222139 0.2756977861402631
1012248247 0.8367311123356613 0.2725634531483404
1012479346 0.8380108043870726 0.269233200571467
1012710445 0.8398772829388927 0.26484336905318434
1012941544 0.8416813774236738 0.2613038248856901
1013172643 0.8436568485173275 0.25777115730111744
1013403742 0.8450134731463232 0.2538411583394797
1013634841 0.8465052749295598 0.2506618673164835
1013865940 0.8482654461891739 0.24708821291727295
1014097039 0.8497376559345917 0.24320088793401134
1014328138 0.851706229444172 0.2394915496681846
1014559237 0.8533033024591564 0.23632664906007383
1014790336 0.85459216440462 0.23209913768927856
1015021435 0.8564531809496643 0.2276707858681934
1015252534 0.858121756579029 0.2242056008851718
1015483633 0.8589504612721361 0.22127244301066878
1015714732 0.8613246945107356 0.21681019458719406
1015945831 0.8622227930293236 0.2137730412562102
1016176930 0.8640075889465393 0.20971681014427265
1016408029 0.8652817662310843 0.20605380790732805
1016639128 0.8667533482524602 0.2015584485184084
1016870227 0.8684989591617097 0.19811357277150146
1017101326 0.8696274736201423 0.19572115694284878
1017332425 0.8718348916765343 0.18993525436175104
1017563524 0.8724771466818572 0.18769665448650386
1017794623 0.8741238608418792 0.1819380928378973
1018025722 0.8756742199256932 0.1803852684782412
1018256821 0.8767749986099805 0.17453617865019022
1018487920 0.8781012381768544 0.1721174414388424
1018719019 0.8797272418019737 0.16827051892071418
1018950118 0.8815724487789215 0.16521782967459445
1019181217 0.8826510664281697 0.15973934711314425
1019412316 0.8836020478406592 0.15612159385152238
1019643415 0.885323362404516 0.1511920684428279
1019874514 0.8862480655720413 0.14849060291680102
1020105613 0.8873876278320111 0.14471318093256144
1020336712 0.8891602880576397 0.14045767250282315
1020567811 0.8904214151229467 0.13610241324957642
1020798910 0.8913613241013406 0.13217529212780232
1021030009 0.892815430212663 0.1275561308299093
1021261108 0.8945537025943541 0.12463628075967151
1021492207 0.8954084912526551 0.12056919626201579
1021723306 0.8964016129541476 0.11629953369525932
1021954405 0.8977236310563533 0.11205089607162323
1022185504 0.8984000358005187 0.10716308300091439
1022416603 0.9000533225654496 0.10417828573232352
1022647702 0.901009883910121 0.09936874488434866
1022878801 0.9013091047597629 0.09522493455242116
1023109900 0.9033711834077174 0.09066504928463501
1023340999 0.901250000569064 0.0865940507145274
1023572098 0.901996656737727 0.08309491858248018
1023803197 0.9036809237254707 0.07960182494006512
1024034296 0.904929139059831 0.07549770753531262
1024265395 0.9052986560900382 0.07148214844979525
1024496494 0.9063847880822476 0.06715645810251882
1024727593 0.9070843188921659 0.06363756487834049
1024958692 0.9076196349569787 0.0591903000286203
1025189791 0.9084635329418026 0.05516783481236661
1025420890 0.9095323949886497 0.0510253089513886
1025651989 0.910275793349377 0.04683595871640344
1025883088 0.9113192577840707 0.04309319916205153
1026114187 0.9121452393350199 0.03831987156394179
1026345286 0.9124292011389133 0.03401471094134682
1026576385 0.9137323877274417 0.03038877741140843
1026807484 0.9143285923814551 0.02679739264101184
1027038583 0.9146568224611705 0.02219742462491632
1027269682 0.9155670061090202 0.019261346336651254
1027500781 0.9160170609378138 0.014266217234358992
1027731880 0.9167362550277894 0.009869172014320226
1027962979 0.9176438932071792 0.005813567789539146
1028194078 0.9183468271560256 0.0028587104846885115
1028425177 0.9184538701840171 -0.0020591525350041615
1028656276 0.9197164053071594 -0.006046990672169246
1028887375 0.9203059407077864 -0.010686023028152886
1029118474 0.920460979231501 -0.01395749575802439
1029349573 0.920946069187041 -0.018569212044179252
1029580672 0.9215118886929007 -0.022172163884082347
1029811771 0.9214556236066467 -0.027925897171016168
1030042870 0.9225161703291456 -0.030140593153003013
1030273969 0.9231594785145338 -0.03606235634036805
1030505068 0.9234169063996123 -0.0398546004665051
1030736167 0.9239226753525891 -0.04318797397510489
1030967266 0.9243175547416105 -0.04838590530703718
1031198365 0.9245306499896538 -0.052508767476058066
1031429464 0.9244456020821371 -0.05736750623992331
1031660563 0.924555609230391 -0.06087371496907832
1031891662 0.9252818749323933 -0.06490221351056116
1032122761 0.9259747697348122 -0.06961312791265123
1032353860 0.9254885382525047 -0.0738132534055062
1032584959 0.9261741854095967 -0.07802017998345902
1032816058 0.9264538775057557 -0.08151200332066569
1033047157 0.9264340480907917 -0.08583341596170051
1033278256 0.9267705634842799 -0.09010690653573857
1033509355 0.9271368532376942 -0.09404877404076195
1033740454 0.9273380347174929 -0.09883035774726522
1033971553 0.9273541595457763 -0.10301736225969833
1034202652 0.9271872378829513 -0.10740960530224815
1034433751 0.9274068983666132 -0.11142886682914212
1034664850 0.9275710300408695 -0.11633196081831983
1034895949 0.9276352046380959 -0.12050368977333267
1035127048 0.9276035105174472 -0.12461563113802994
1035358147 0.9281071548771611 -0.12842547693570694
1035589246 0.9275873289054648 -0.13303621638734153
1035820345 0.9277112419754727 -0.13735384504163115
1036051444 0.9276126021564732 -0.1414101318731525
1036282543 0.9272084466951755 -0.1461014893545741
1036513642 0.9272022005816056 -0.14969770176816366
1036744741 0.9274292234306256 -0.15437345649009232
1036975840 0.9272528706363944 -0.15880575993155915
1037206939 0.9272875442227125 -0.16280464047424506
1037438038 0.9270643011889572 -0.16765858217459106
1037669137 0.9266757037951288 -0.172013990135719
1037900236 0.9267026438153306 -0.176742679257547
1038131335 0.925894742122717 -0.1806089405557779
1038362434 0.9261306249643463 -0.1847696675179727
1038593533 0.9260646813923106 -0.188707469715406
1038824632 0.9255897881433335 -0.1935169471878881
1039055731 0.9249819317607642 -0.1982356941518386
1039286830 0.9249784216055765 -0.20276030209278703
1039517929 0.9247496883286553 -0.20672652390357996
1039749028 0.923853296494358 -0.21106609764529305
1039980127 0.9239246193523085 -0.21542335575970276
1040211226 0.9231864323120673 -0.21963300201044378
1040442325 0.9227981366078675 -0.22466876549583212
1040673424 0.9224186122095432 -0.22794613128763083
1040904523 0.9218464108357184 -0.23324926623817807
1041135622 0.9216166453199146 -0.23709533779000672
1041366721 0.9210995015248471 -0.24193369931870645
1041597820 0.9203344050912187 -0.24643319350929896
1041828919 0.9198846860125799 -0.2508449567661808
1042060018 0.91946484047222 -0.25473204526943855
1042291117 0.9187722773106521 -0.2590177793004981
1042522216 0.9178143762991611 -0.26384933185788095
1042753315 0.9175104891162846 -0.2675296683900544
1042984414 0.9164042948353336 -0.2728800742588101
1043215513 0.9161755955721117 -0.2766370536186954
1043446612 0.9148608415614738 -0.2815713323300953
1043677711 0.914400781895207 -0.28556097495548255
1043908810 0.9137286136414765 -0.29027875685960663
1044139909 0.9136777900919203 -0.29303958245228473
1044371008 0.9120941924906933 -0.298584630533536
1044602107 0.911368698520159 -0.30391207025423145
1044833206 0.9104748044637839 -0.30684124212394703
1045064305 0.909810065624375 -0.3112663244177856
1045295404 0.9081893204974065 -0.3179876851362631
1045526503 0.9086037324339461 -0.31932213327945724
1045757602 0.9070996219597833 -0.3253437830716383
1045988701 0.9060671391957282 -0.32986796028821663
1046219800 0.905347621517258 -0.3345312605500687
1046450899 0.9045520618199571 -0.33819630379975535
1046681998 0.9029057555380474 -0.34230943228552535
1046913097 0.9025201581724133 -0.34711539369662514
1047144196 0.9010483114686197 -0.35057480549387066
1047375295 0.8993031681564712 -0.35644745558705937
1047606394 0.8983037814018209 -0.3603753785204164
1047837493 0.8981931792020272 -0.36390940774681446
1048068592 0.8964338577227849 -0.3686719454659079
1048299691 0.8955955791719692 -0.3734266009750573
1048530790 0.8943538486857044 -0.37775163422605296
1048761889 0.8931251767798485 -0.38229800313338275
1048992988 0.8914870110658327 -0.3863738380668776
1049224087 0.8908448802235454 -0.39106232597949736
1049455186 0.8891811965478964 -0.3958207331051522
1049686285 0.8881283011822481 -0.4002051913951508
1049917384 0.8866335630999135 -0.4046872858272191
1050148483 0.8845201759551872 -0.4089000493923009
1050379582 0.8834969679512781 -0.413185608152498
1050610681 0.8822296364044879 -0.4180557673720512
1050841780 0.8809564085397773 -0.4226650565590931
1051072879 0.8791092076776479 -0.4267109218595068
1051303978 0.8774736922294052 -0.4315195175398664
1051535077 0.8760805722846156 -0.43569016060514776
1051766176 0.8743169701410225 -0.439687180796665
1051997275 0.8731832389740607 -0.4435708677682317
1052228374 0.8710155480509914 -0.4485083567574173
1052459473 0.8692428742506723 -0.4527876671959421
1052690572 0.8684155644526935 -0.45726078386980346
1052921671 0.8658770925646435 -0.46145589788483954
1053152770 0.8649120392862779 -0.4660528607469071
1053383869 0.8632498766727645 -0.47036181889687295
1053614968 0.8605228346884047 -0.4747382037188591
1053846067 0.8598916214888471 -0.4788250576449531
1054077166 0.8567361433400947 -0.48381511795832244
1054308265 0.8555329097107833 -0.48780028196593544
1054539364 0.8537655394912256 -0.49193616832531584
1054770463 0.8516469066007267 -0.4969889840367745
1055001562 0.8498305540968808 -0.5006722705878786
1055232661 0.8479113098759459 -0.5047261425796878
1055463760 0.8463913457904747 -0.5092569698183959
1055694859 0.8444820965052746 -0.5136797319327027
1055925958 0.8424867807276831 -0.5180179219705753
1056157057 0.8397983533270197 -0.5231793445225469
1056388156 0.8383818857270451 -0.5268796708174482
1056619255 0.8361344715502268 -0.5304079771806415
1056850354 0.8340422370131594 -0.5356452994676777
1057081453 0.83168674060689 -0.5397761690424415
1057312552 0.8301730121480059 -0.5441608860887447
1057543651 0.8270246758055034 -0.5484387684209384
1057774750 0.8249653564810407 -0.5521351467310197
1058005849 0.8230824742745648 -0.5566050158915362
1058236948 0.8204206295695711 -0.56124227463018
1058468047 0.8183855926182414 -0.5649036526122498
1058699146 0.8166384137598335 -0.5694477146654421
1058930245 0.8134482032201963 -0.5732327657740188
1059161344 0.8114193863974967 -0.5777979092898593
1059392443 0.8082644086972447 -0.5831938099610209
1059623542 0.8057329292923412 -0.5869448579681873
1059854641 0.8034216041635031 -0.5907887110469723
1060085740 0.8016422874144475 -0.5946355268499389
1060316839 0.7993706748066026 -0.598742016782125
1060547938 0.7961616182508461 -0.6039800614517818
1060779037 0.7941603578042421 -0.6074650671569827
1061010136 0.7906675874889736 -0.6113947297844624
1061241235 0.7888103141591917 -0.6156071553896034
1061472334 0.7864579338677877 -0.6202102287576127
1061703433 0.7825709727461451 -0.6245548003803117
1061934532 0.781193480049694 -0.6275878428385685
1062165631 0.7773343776164241 -0.632880756397104
1062396730 0.7759508763980418 -0.6360860888722148
1062627829 0.7720027999945582 -0.6408010835706905
1062858928 0.7698328985630708 -0.6445124947616717
1063090027 0.767132484104347 -0.6487270466224317
1063321126 0.7636725831935481 -0.6528662918900688
1063552225 0.7611234220609188 -0.6569640572914522
1063783324 0.7578752827086876 -0.6609810039371306
1064014423 0.7551188511841906 -0.6647735659260932
1064245522 0.7521386881796374 -0.66919352436852
1064476621 0.7487656187391801 -0.6733370326351299
1064707720 0.7460588527014058 -0.6771630999286256
1064938819 0.7437915107298303 -0.6808872744124802
1065169918 0.739874141849232 -0.6854919337007807
1065401017 0.7368419305745518 -0.6889104392991794
1065632116 0.7337477874689647 -0.6931047146564283
1065863215 0.7314547545352023 -0.6967049532595216
1066094314 0.7269014833812646 -0.7009178992188486
1066325413 0.72428271516041 -0.704947458668044
1066556512 0.7214025782020427 -0.7087612613000335
1066787611 0.7176983954381944 -0.7126652097470191
1067018710 0.714589594044841 -0.7177498530050158
1067249809 0.7117599251716574 -0.7202162641516976
1067480908 0.7077232507169327 -0.7242050968675858
1067712007 0.7048125560531467 -0.7286676409799425
1067943106 0.7011787520514636 -0.7319423511973118
1068174205 0.6976412123602697 -0.7355028488571813
1068405304 0.6941262074080309 -0.7396620192758824
1068636403 0.6909543696100386 -0.7430901403479522
1068867502 0.6875194257407764 -0.746706510623719
1069098601 0.6835797160029877 -0.7507033829045829
1069329700 0.680000433753058 -0.754555608778672
1069560799 0.6763114850192439 -0.758778077199766
1069791898 0.6728763254406082 -0.761854007245283
1070022997 0.6691114085983932 -0.7659570745512024
1070254096 0.666297035689574 -0.7690377576683787
1070485195 0.6621434005793998 -0.7733288918721011
1070716294 0.6584981269741156 -0.7770533943178025
1070947393 0.6547665326214847 -0.7806969284435996
1071178492 0.6509784719358438 -0.78433136518369
1071409591 0.6481490714762664 -0.7880304782880204
1071640690 0.6433648769646774 -0.7907285792823716
1071871789 0.6387440125302354 -0.7946338001535899
1072102888 0.6361553803623342 -0.798668339337572
1072333987 0.6322362062461516 -0.8016315067263772
1072565086 0.6281855499881496 -0.8050188845666535
1072796185 0.6241258651569231 -0.8083937977227889
1073027284 0.6198995287193327 -0.8120689636180806
1073258383 0.6163560943079225 -0.8156243686414637
1073489482 0.6123127148153633 -0.8181893901015062
1073720581 0.6082399446295741 -0.8225956486649029
1073951680 0.6041221195815898 -0.8254160404851132
1074182779 0.6002108071560255 -0.8300955694410822
1074413878 0.595782192426064 -0.8322361121754752
1074644977 0.5909087101445561 -0.8360601606807316
1074876076 0.5875048070508797 -0.8405890093959868
1075107175 0.5838437896473448 -0.8421923408738289
1075338274 0.5809559109615596 -0.8453176347670347
1075569373 0.5742301221451473 -0.8487182709792328
1075800472 0.571084420612186 -0.8522810723068446
1076031571 0.5669682978993128 -0.8548593792868032
1076262670 0.5613605556945853 -0.8584986456653908
1076493769 0.5583764740316394 -0.8608888067985504
1076724868 0.5540399343034004 -0.864541217288178
1076955967 0.5487038225831494 -0.8674329666371079
1077187066 0.5456054809835452 -0.8700028008467175
1077418165 0.5407432778153728 -0.8745283474934578
1077649264 0.5350192827100105 -0.8759761983864698
1077880363 0.5290642532206699 -0.8810855666436911
1078111462 0.5282092807429721 -0.8821400178473159
1078342561 0.523054849646764 -0.8867388196929094
1078573660 0.5182151991214007 -0.8879754806437896
1078804759 0.5126099952015323 -0.8921571984785248
1079035858 0.5085445221288999 -0.8956970289300498
1079266957 0.5038600774758203 -0.8972508465340454
1079498056 0.4995235561166104 -0.8999192501416284
1079729155 0.4952738641464706 -0.9038485835055693
1079960254 0.4886151849247227 -0.9054168565595655
1080191353 0.48510360362400573 -0.9085680045289746
1080422452 0.48008978756859005 -0.911335912657366
1080653551 0.4748178729260452 -0.9145710565205598
1080884650 0.4714791711004046 -0.9166276355282895
1081115749 0.4660431582850193 -0.9197717120515377
1081346848 0.46167844067726815 -0.9223368793801674
1081577947 0.4551626721796192 -0.9238646951420831
1081809046 0.4518760474404067 -0.9261783807698853
1082040145 0.4470094464881968 -0.9299904695661461
1082271244 0.441452654869089 -0.9320263072890765
1082502343 0.43643669320424666 -0.9346381960783668
1082733442 0.43045475785780957 -0.9365782401522111
1082964541 0.4269869702807515 -0.939190277121785
1083195640 0.42080829994539243 -0.9408542992338458
1083426739 0.41608540518176745 -0.9440500325437428
1083657838 0.4120718990493157 -0.9464166317500222
1083888937 0.4064791303045474 -0.9482529181540091
1084120036 0.40236166732995593 -0.9501165653941792
1084351135 0.3962153363952381 -0.9522643895929552
1084582234 0.391059287996617 -0.9550196942466201
1084813333 0.3859396626723768 -0.9575516374014335
1085044432 0.3805954069372916 -0.9592105633203366
1085275531 0.3752779158355505 -0.9609704747459294
1085506630 0.37156362009138755 -0.9635622976100128
1085737729 0.3661514636316855 -0.9660349783172948
1085968828 0.35966692494510893 -0.9674823631052069
1086199927 0.3539492590536628 -0.9694698539778417
1086431026 0.35006198899975616 -0.9715559111702599
1086662125 0.34382211067028273 -0.9725957017841941
1086893224 0.3401892890295632 -0.9757142038567879
1087124323 0.33345849746393635 -0.97731599502812
1087355422 0.3285966667928043 -0.9786876450934153
1087586521 0.3233796027282348 -0.9809505454258014
1087817620 0.31834619517112805 -0.9824376752646853
1088048719 0.3116789198855736 -0.9838651282304223
1088279818 0.30671227453286437 -0.9851801209127536
1088510917 0.30111781836503726 -0.9877564389896897
1088742016 0.29728924545382585 -0.9885877175578459
1088973115 0.29144487891192367 -0.9901997971969347
1089204214 0.2844880081287874 -0.9927120313642592
1089435313 0.27954694195165786 -0.9935145482749187
1089666412 0.27404416191013387 -0.9945641679927328
1089897511 0.2688139335040736 -0.9966620538673008
1090128610 0.26394888115523657 -0.9968786567626096
1090359709 0.2573431526828656 -0.9990377896342783
1090590808 0.2524568007086001 -1.0010478583277684
1090821907 0.24697239475997557 -1.0015558407466194
1091053006 0.2408107298957586 -1.0029517308253455
1091284105 0.2354764337333793 -1.0042363594299701
1091515204 0.22932849182743037 -1.005168066136793
1091746303 0.22321945682965272 -1.0069187639744959
1091977402 0.21855635651203278 -1.0075554833780864
